T4598 148:546 SEGGER J-Link V6.30h Log File (0000ms, 3591ms total)
T4598 148:546 DLL Compiled: Mar 16 2018 18:02:51 (0000ms, 3591ms total)
T4598 148:546 Logging started @ 2019-12-31 16:41 (0000ms, 3591ms total)
T4598 148:546 JLINK_SetWarnOutHandler(...) (0000ms, 3591ms total)
T4598 148:546 JLINK_OpenEx(...)
Firmware: J-Link Lite-Cortex-M V8 compiled Sep 15 2016 12:05:01
Hardware: V8.00
S/N: 518110446
Feature(s): GDB
TELNET listener socket opened on port 19021C:\Program Files (x86)\SEGGER\JLink_V644e\JLinkDevices.xml evaluated successfully.WEBSRV 
Starting webserver (0242ms, 3833ms total)
T4598 148:546 WEBSRV Webserver running on local port 19081 (0242ms, 3833ms total)
T4598 148:546   returns O.K. (0242ms, 3833ms total)
T4598 148:788 JLINK_GetEmuCaps()  returns 0xB8EA7A3B (0000ms, 3833ms total)
T4598 148:791 JLINK_TIF_GetAvailable(...) (0001ms, 3834ms total)
T4598 148:792 JLINK_SetErrorOutHandler(...) (0000ms, 3834ms total)
T4598 148:792 JLINK_ExecCommand("ProjectFile = "D:\_test\xin\git\nRF5_SDK_14.2.0_17b948a\project\ble_central\ble_gateway\pca10040\s132\arm5_no_packs\JLinkSettings.ini"", ...).   returns 0x00 (0002ms, 3836ms total)
T4598 148:800 JLINK_ExecCommand("Device = nRF52832_xxAA", ...). Device "NRF52832_XXAA" selected.  returns 0x00 (0002ms, 3838ms total)
T4598 148:802 JLINK_ExecCommand("DisableConnectionTimeout", ...).   returns 0x01 (0000ms, 3838ms total)
T4598 148:802 JLINK_GetHardwareVersion()  returns 0x13880 (0000ms, 3838ms total)
T4598 148:802 JLINK_GetDLLVersion()  returns 63008 (0000ms, 3838ms total)
T4598 148:802 JLINK_GetFirmwareString(...) (0000ms, 3838ms total)
T4598 148:808 JLINK_GetDLLVersion()  returns 63008 (0000ms, 3838ms total)
T4598 148:808 JLINK_GetCompileDateTime() (0000ms, 3838ms total)
T4598 148:815 JLINK_GetFirmwareString(...) (0000ms, 3838ms total)
T4598 148:816 JLINK_GetHardwareVersion()  returns 0x13880 (0000ms, 3838ms total)
T4598 148:821 JLINK_TIF_Select(JLINKARM_TIF_SWD)  returns 0x00 (0004ms, 3842ms total)
T4598 148:825 JLINK_SetSpeed(5000) (0000ms, 3842ms total)
T4598 148:825 JLINK_GetId() >0x10B TIF>Found SW-DP with ID 0x2BA01477 >0x0D TIF> >0x28 TIF> >0x0D TIF> >0x28 TIF> >0x0D TIF> >0x28 TIF> >0x0D TIF> >0x28 TIF> >0x0D TIF> >0x28 TIF> >0x0D TIF> >0x28 TIF> >0x35 TIF> >0x35 TIF> >0x0D TIF> >0x28 TIF> >0x35 TIF> >0x35 TIF> >0x10B TIF>Found SW-DP with ID 0x2BA01477 >0x0D TIF> >0x28 TIF> >0x0D TIF> >0x28 TIF> >0x0D TIF> >0x28 TIF> >0x0D TIF> >0x28 TIF> >0x35 TIF> >0x0D TIF> >0x28 TIF>Scanning AP map to find all available APs >0x0D TIF> >0x28 TIF> >0x35 TIF>
 >0x35 TIF> >0x0D TIF> >0x28 TIF> >0x35 TIF> >0x35 TIF> >0x0D TIF> >0x28 TIF> >0x35 TIF> >0x35 TIF>AP[2]: Stopped AP scan as end of AP map has been reachedAP[0]: AHB-AP (IDR: 0x24770011)AP[1]: JTAG-AP (IDR: 0x02880000)Iterating through AP map to find AHB-AP to use >0x42 TIF> >0x28 TIF> >0x0D TIF> >0x28 TIF> >0x35 TIF> >0x35 TIF> >0x42 TIF> >0x28 TIF> >0x0D TIF> >0x28 TIF> >0x0D TIF> >0x28 TIF> >0x35 TIF> >0x35 TIF>AP[0]: Core foundAP[0]: AHB-AP ROM base: 0xE00FF000 >0x0D TIF> >0x28 TIF> >0x0D TIF>
 >0x28 TIF> >0x0D TIF> >0x28 TIF> >0x35 TIF> >0x35 TIF>CPUID register: 0x410FC241. Implementer code: 0x41 (ARM)Found Cortex-M4 r0p1, Little endian. -- CPU_ReadMem(4 bytes @ 0xE000EDF0) -- CPU_ReadMem(4 bytes @ 0xE0002000)FPUnit: 6 code (BP) slots and 2 literal slots -- CPU_ReadMem(4 bytes @ 0xE000EDFC) -- CPU_ReadMem(4 bytes @ 0xE0001000) -- CPU_WriteMem(4 bytes @ 0xE0001000) -- CPU_ReadMem(4 bytes @ 0xE000ED88) -- CPU_WriteMem(4 bytes @ 0xE000ED88) -- CPU_ReadMem(4 bytes @ 0xE000ED88)
 -- CPU_WriteMem(4 bytes @ 0xE000ED88)CoreSight components:ROMTbl[0] @ E00FF000 -- CPU_ReadMem(16 bytes @ 0xE00FF000) -- CPU_ReadMem(16 bytes @ 0xE000EFF0) -- CPU_ReadMem(16 bytes @ 0xE000EFE0)ROMTbl[0][0]: E000E000, CID: B105E00D, PID: 000BB00C SCS-M7 -- CPU_ReadMem(16 bytes @ 0xE0001FF0) -- CPU_ReadMem(16 bytes @ 0xE0001FE0)ROMTbl[0][1]: E0001000, CID: B105E00D, PID: 003BB002 DWT -- CPU_ReadMem(16 bytes @ 0xE0002FF0) -- CPU_ReadMem(16 bytes @ 0xE0002FE0)
ROMTbl[0][2]: E0002000, CID: B105E00D, PID: 002BB003 FPB -- CPU_ReadMem(16 bytes @ 0xE0000FF0) -- CPU_ReadMem(16 bytes @ 0xE0000FE0)ROMTbl[0][3]: E0000000, CID: B105E00D, PID: 003BB001 ITM -- CPU_ReadMem(16 bytes @ 0xE00FF010) -- CPU_ReadMem(16 bytes @ 0xE0040FF0) -- CPU_ReadMem(16 bytes @ 0xE0040FE0)ROMTbl[0][4]: E0040000, CID: B105900D, PID: 000BB9A1 TPIU -- CPU_ReadMem(16 bytes @ 0xE0041FF0) -- CPU_ReadMem(16 bytes @ 0xE0041FE0)ROMTbl[0][5]: E0041000, CID: B105900D, PID: 000BB925 ETM >0x35 TIF>
  returns 0x2BA01477 (0194ms, 4036ms total)
T4598 149:019 JLINK_GetDLLVersion()  returns 63008 (0000ms, 4036ms total)
T4598 149:019 JLINK_CORE_GetFound()  returns 0xE0000FF (0000ms, 4036ms total)
T4598 149:019 JLINK_GetDebugInfo(0x100 = JLINKARM_ROM_TABLE_ADDR_INDEX) -- Value=0xE00FF000  returns 0x00 (0000ms, 4036ms total)
T4598 149:020 JLINK_GetDebugInfo(0x100 = JLINKARM_ROM_TABLE_ADDR_INDEX) -- Value=0xE00FF000  returns 0x00 (0000ms, 4036ms total)
T4598 149:020 JLINK_GetDebugInfo(0x101 = JLINKARM_DEBUG_INFO_ETM_ADDR_INDEX) -- Value=0xE0041000  returns 0x00 (0000ms, 4036ms total)
T4598 149:020 JLINK_ReadMemEx(0xE0041FD0, 0x0020 Bytes, ..., Flags = 0x02000004) -- CPU_ReadMem(32 bytes @ 0xE0041FD0) - Data: 04 00 00 00 00 00 00 00 00 00 00 00 00 00 00 00 ...  returns 0x20 (0002ms, 4038ms total)
T4598 149:022 JLINK_GetDebugInfo(0x102 = JLINKARM_DEBUG_INFO_MTB_ADDR_INDEX) -- Value=0x00000000  returns 0x00 (0000ms, 4038ms total)
T4598 149:022 JLINK_GetDebugInfo(0x103 = JLINKARM_DEBUG_INFO_TPIU_ADDR_INDEX) -- Value=0xE0040000  returns 0x00 (0000ms, 4038ms total)
T4598 149:022 JLINK_GetDebugInfo(0x104 = JLINKARM_DEBUG_INFO_ITM_ADDR_INDEX) -- Value=0xE0000000  returns 0x00 (0000ms, 4038ms total)
T4598 149:022 JLINK_GetDebugInfo(0x105 = JLINKARM_DEBUG_INFO_DWT_ADDR_INDEX) -- Value=0xE0001000  returns 0x00 (0000ms, 4038ms total)
T4598 149:022 JLINK_GetDebugInfo(0x106 = JLINKARM_DEBUG_INFO_FPB_ADDR_INDEX) -- Value=0xE0002000  returns 0x00 (0000ms, 4038ms total)
T4598 149:022 JLINK_GetDebugInfo(0x107 = JLINKARM_DEBUG_INFO_NVIC_ADDR_INDEX) -- Value=0xE000E000  returns 0x00 (0000ms, 4038ms total)
T4598 149:022 JLINK_GetDebugInfo(0x10C = JLINKARM_DEBUG_INFO_DBG_ADDR_INDEX) -- Value=0xE000EDF0  returns 0x00 (0000ms, 4038ms total)
T4598 149:022 JLINK_GetDebugInfo(0x01 = Unknown) -- Value=0x00000001  returns 0x00 (0000ms, 4038ms total)
T4598 149:022 JLINK_ReadMemU32(0xE000ED00, 0x0001 Items, ...) -- CPU_ReadMem(4 bytes @ 0xE000ED00) - Data: 41 C2 0F 41  returns 0x01 (0001ms, 4039ms total)
T4598 149:023 JLINK_GetDebugInfo(0x10F = JLINKARM_DEBUG_INFO_HAS_CORTEX_M_SECURITY_EXT_INDEX) -- Value=0x00000000  returns 0x00 (0000ms, 4039ms total)
T4598 149:023 JLINK_SetResetType(JLINKARM_CM3_RESET_TYPE_NORMAL)  returns JLINKARM_CM3_RESET_TYPE_NORMAL (0000ms, 4039ms total)
T4598 149:023 JLINK_Reset() -- CPU is running -- CPU_WriteMem(4 bytes @ 0xE000EDF0) -- CPU is running -- CPU_WriteMem(4 bytes @ 0xE000EDFC)Reset: Halt core after reset via DEMCR.VC_CORERESET. >0x35 TIF>Reset: Reset device via AIRCR.SYSRESETREQ. -- CPU is running -- CPU_WriteMem(4 bytes @ 0xE000ED0C) >0x0D TIF> >0x28 TIF> -- CPU_ReadMem(4 bytes @ 0xE000EDF0) -- CPU_ReadMem(4 bytes @ 0xE000EDF0) -- CPU is running -- CPU_WriteMem(4 bytes @ 0xE000EDF0) -- CPU is running -- CPU_WriteMem(4 bytes @ 0xE000EDFC)
 -- CPU_ReadMem(4 bytes @ 0xE000EDF0) -- CPU_WriteMem(4 bytes @ 0xE0002000) -- CPU_ReadMem(4 bytes @ 0xE000EDFC) -- CPU_ReadMem(4 bytes @ 0xE0001000) (0076ms, 4115ms total)
T4598 149:099 JLINK_Halt()  returns 0x00 (0000ms, 4115ms total)
T4598 149:099 JLINK_ReadMemU32(0xE000EDF0, 0x0001 Items, ...) -- CPU_ReadMem(4 bytes @ 0xE000EDF0) - Data: 03 00 03 00  returns 0x01 (0044ms, 4159ms total)
T4598 149:143 JLINK_WriteU32(0xE000EDF0, 0xA05F0003) -- CPU_WriteMem(4 bytes @ 0xE000EDF0)  returns 0x00 (0001ms, 4160ms total)
T4598 149:144 JLINK_WriteU32(0xE000EDFC, 0x01000000) -- CPU_WriteMem(4 bytes @ 0xE000EDFC)  returns 0x00 (0001ms, 4161ms total)
T4598 149:150 JLINK_GetHWStatus(...)  returns 0x00 (0000ms, 4161ms total)
T4598 149:161 JLINK_GetNumBPUnits(Type = 0xFFFFFF00)  returns 0x06 (0000ms, 4161ms total)
T4598 149:161 JLINK_GetNumBPUnits(Type = 0xF0)  returns 0x2000 (0000ms, 4161ms total)
T4598 149:161 JLINK_GetNumWPUnits()  returns 0x04 (0000ms, 4161ms total)
T4598 149:165 JLINK_GetSpeed()  returns 0x7D0 (0000ms, 4161ms total)
T4598 149:175 JLINK_ReadMemU32(0xE000E004, 0x0001 Items, ...) -- CPU_ReadMem(4 bytes @ 0xE000E004) - Data: 01 00 00 00  returns 0x01 (0001ms, 4162ms total)
T4598 149:176 JLINK_ReadMemU32(0xE000E004, 0x0001 Items, ...) -- CPU_ReadMem(4 bytes @ 0xE000E004) - Data: 01 00 00 00  returns 0x01 (0000ms, 4162ms total)
T4598 149:176 JLINK_WriteMemEx(0xE0001000, 0x001C Bytes, ..., Flags = 0x02000004) - Data: 01 00 00 00 00 00 00 00 00 00 00 00 00 00 00 00 ... -- CPU_WriteMem(28 bytes @ 0xE0001000)  returns 0x1C (0001ms, 4163ms total)
T4598 149:177 JLINK_Halt()  returns 0x00 (0000ms, 4163ms total)
T4598 149:177 JLINK_IsHalted()  returns TRUE (0000ms, 4163ms total)
T4598 149:180 JLINK_WriteMem(0x20000000, 0x0234 Bytes, ...) - Data: 00 BE 0A E0 0D 78 2D 06 68 40 08 24 40 00 00 D3 ... -- CPU_WriteMem(564 bytes @ 0x20000000)  returns 0x234 (0007ms, 4170ms total)
T4598 149:187 JLINK_WriteReg(R0, 0x00000000)  returns 0x00 (0000ms, 4170ms total)
T4598 149:187 JLINK_WriteReg(R1, 0x03D09000)  returns 0x00 (0000ms, 4170ms total)
T4598 149:187 JLINK_WriteReg(R2, 0x00000001)  returns 0x00 (0000ms, 4170ms total)
T4598 149:187 JLINK_WriteReg(R3, 0x00000000)  returns 0x00 (0000ms, 4170ms total)
T4598 149:187 JLINK_WriteReg(R4, 0x00000000)  returns 0x00 (0000ms, 4170ms total)
T4598 149:187 JLINK_WriteReg(R5, 0x00000000)  returns 0x00 (0000ms, 4170ms total)
T4598 149:187 JLINK_WriteReg(R6, 0x00000000)  returns 0x00 (0000ms, 4170ms total)
T4598 149:187 JLINK_WriteReg(R7, 0x00000000)  returns 0x00 (0000ms, 4170ms total)
T4598 149:187 JLINK_WriteReg(R8, 0x00000000)  returns 0x00 (0000ms, 4170ms total)
T4598 149:187 JLINK_WriteReg(R9, 0x20000230)  returns 0x00 (0000ms, 4170ms total)
T4598 149:187 JLINK_WriteReg(R10, 0x00000000)  returns 0x00 (0000ms, 4170ms total)
T4598 149:187 JLINK_WriteReg(R11, 0x00000000)  returns 0x00 (0000ms, 4170ms total)
T4598 149:187 JLINK_WriteReg(R12, 0x00000000)  returns 0x00 (0000ms, 4170ms total)
T4598 149:187 JLINK_WriteReg(R13 (SP), 0x20002000)  returns 0x00 (0000ms, 4170ms total)
T4598 149:187 JLINK_WriteReg(R14, 0x20000001)  returns 0x00 (0000ms, 4170ms total)
T4598 149:187 JLINK_WriteReg(R15 (PC), 0x2000003C)  returns 0x00 (0000ms, 4170ms total)
T4598 149:187 JLINK_WriteReg(XPSR, 0x01000000)  returns 0x00 (0000ms, 4170ms total)
T4598 149:187 JLINK_WriteReg(MSP, 0x20002000)  returns 0x00 (0000ms, 4170ms total)
T4598 149:187 JLINK_WriteReg(PSP, 0x20002000)  returns 0x00 (0000ms, 4170ms total)
T4598 149:187 JLINK_WriteReg(CFBP, 0x00000000)  returns 0x00 (0000ms, 4170ms total)
T4598 149:187 JLINK_SetBPEx(Addr = 0x20000000, Type = 0xFFFFFFF2) -- CPU_ReadMem(2 bytes @ 0x20000000)  returns 0x00000001 (0001ms, 4171ms total)
T4598 149:188 JLINK_Go() -- CPU_WriteMem(2 bytes @ 0x20000000) -- CPU_ReadMem(4 bytes @ 0xE0001000) -- CPU_WriteMem(4 bytes @ 0xE0002008) -- CPU_WriteMem(4 bytes @ 0xE000200C) -- CPU_WriteMem(4 bytes @ 0xE0002010) -- CPU_WriteMem(4 bytes @ 0xE0002014) -- CPU_WriteMem(4 bytes @ 0xE0002018) -- CPU_WriteMem(4 bytes @ 0xE000201C) -- CPU_WriteMem(4 bytes @ 0xE0001004) (0007ms, 4178ms total)
T4598 149:196 JLINK_IsHalted() -- CPU_ReadMem(2 bytes @ 0x20000000)  returns TRUE (0006ms, 4184ms total)
T4598 149:202 JLINK_ReadReg(R15 (PC))  returns 0x20000000 (0000ms, 4178ms total)
T4598 149:202 JLINK_ClrBPEx(BPHandle = 0x00000001)  returns 0x00 (0000ms, 4178ms total)
T4598 149:202 JLINK_ReadReg(R0)  returns 0x00000000 (0000ms, 4178ms total)
T4598 149:205 JLINK_WriteReg(R0, 0x00023000)  returns 0x00 (0000ms, 4178ms total)
T4598 149:205 JLINK_WriteReg(R1, 0x00001000)  returns 0x00 (0000ms, 4178ms total)
T4598 149:205 JLINK_WriteReg(R2, 0x000000FF)  returns 0x00 (0000ms, 4178ms total)
T4598 149:205 JLINK_WriteReg(R3, 0x00000000)  returns 0x00 (0000ms, 4178ms total)
T4598 149:205 JLINK_WriteReg(R4, 0x00000000)  returns 0x00 (0000ms, 4178ms total)
T4598 149:205 JLINK_WriteReg(R5, 0x00000000)  returns 0x00 (0000ms, 4178ms total)
T4598 149:205 JLINK_WriteReg(R6, 0x00000000)  returns 0x00 (0000ms, 4178ms total)
T4598 149:205 JLINK_WriteReg(R7, 0x00000000)  returns 0x00 (0000ms, 4178ms total)
T4598 149:205 JLINK_WriteReg(R8, 0x00000000)  returns 0x00 (0000ms, 4178ms total)
T4598 149:205 JLINK_WriteReg(R9, 0x20000230)  returns 0x00 (0000ms, 4178ms total)
T4598 149:205 JLINK_WriteReg(R10, 0x00000000)  returns 0x00 (0000ms, 4178ms total)
T4598 149:205 JLINK_WriteReg(R11, 0x00000000)  returns 0x00 (0000ms, 4178ms total)
T4598 149:205 JLINK_WriteReg(R12, 0x00000000)  returns 0x00 (0000ms, 4178ms total)
T4598 149:205 JLINK_WriteReg(R13 (SP), 0x20002000)  returns 0x00 (0000ms, 4178ms total)
T4598 149:205 JLINK_WriteReg(R14, 0x20000001)  returns 0x00 (0000ms, 4178ms total)
T4598 149:205 JLINK_WriteReg(R15 (PC), 0x2000011A)  returns 0x00 (0000ms, 4178ms total)
T4598 149:205 JLINK_WriteReg(XPSR, 0x01000000)  returns 0x00 (0000ms, 4178ms total)
T4598 149:205 JLINK_WriteReg(MSP, 0x20002000)  returns 0x00 (0000ms, 4178ms total)
T4598 149:205 JLINK_WriteReg(PSP, 0x20002000)  returns 0x00 (0000ms, 4178ms total)
T4598 149:205 JLINK_WriteReg(CFBP, 0x00000000)  returns 0x00 (0000ms, 4178ms total)
T4598 149:205 JLINK_SetBPEx(Addr = 0x20000000, Type = 0xFFFFFFF2)  returns 0x00000002 (0000ms, 4178ms total)
T4598 149:205 JLINK_Go() -- CPU_ReadMem(4 bytes @ 0xE0001000) (0044ms, 4222ms total)
T4598 149:249 JLINK_IsHalted() -- CPU_ReadMem(2 bytes @ 0x20000000)  returns TRUE (0005ms, 4227ms total)
T4598 149:254 JLINK_ReadReg(R15 (PC))  returns 0x20000000 (0000ms, 4222ms total)
T4598 149:254 JLINK_ClrBPEx(BPHandle = 0x00000002)  returns 0x00 (0000ms, 4222ms total)
T4598 149:254 JLINK_ReadReg(R0)  returns 0x00000001 (0000ms, 4222ms total)
T4598 149:254 JLINK_WriteReg(R0, 0x00023000)  returns 0x00 (0000ms, 4222ms total)
T4598 149:254 JLINK_WriteReg(R1, 0x00001000)  returns 0x00 (0000ms, 4222ms total)
T4598 149:254 JLINK_WriteReg(R2, 0x000000FF)  returns 0x00 (0000ms, 4222ms total)
T4598 149:254 JLINK_WriteReg(R3, 0x00000000)  returns 0x00 (0000ms, 4222ms total)
T4598 149:254 JLINK_WriteReg(R4, 0x00000000)  returns 0x00 (0000ms, 4222ms total)
T4598 149:254 JLINK_WriteReg(R5, 0x00000000)  returns 0x00 (0000ms, 4222ms total)
T4598 149:254 JLINK_WriteReg(R6, 0x00000000)  returns 0x00 (0000ms, 4222ms total)
T4598 149:254 JLINK_WriteReg(R7, 0x00000000)  returns 0x00 (0000ms, 4222ms total)
T4598 149:254 JLINK_WriteReg(R8, 0x00000000)  returns 0x00 (0000ms, 4222ms total)
T4598 149:254 JLINK_WriteReg(R9, 0x20000230)  returns 0x00 (0000ms, 4222ms total)
T4598 149:254 JLINK_WriteReg(R10, 0x00000000)  returns 0x00 (0000ms, 4222ms total)
T4598 149:254 JLINK_WriteReg(R11, 0x00000000)  returns 0x00 (0000ms, 4222ms total)
T4598 149:254 JLINK_WriteReg(R12, 0x00000000)  returns 0x00 (0000ms, 4222ms total)
T4598 149:254 JLINK_WriteReg(R13 (SP), 0x20002000)  returns 0x00 (0000ms, 4222ms total)
T4598 149:254 JLINK_WriteReg(R14, 0x20000001)  returns 0x00 (0000ms, 4222ms total)
T4598 149:255 JLINK_WriteReg(R15 (PC), 0x200000D8)  returns 0x00 (0000ms, 4223ms total)
T4598 149:255 JLINK_WriteReg(XPSR, 0x01000000)  returns 0x00 (0000ms, 4223ms total)
T4598 149:255 JLINK_WriteReg(MSP, 0x20002000)  returns 0x00 (0000ms, 4223ms total)
T4598 149:255 JLINK_WriteReg(PSP, 0x20002000)  returns 0x00 (0000ms, 4223ms total)
T4598 149:255 JLINK_WriteReg(CFBP, 0x00000000)  returns 0x00 (0000ms, 4223ms total)
T4598 149:255 JLINK_SetBPEx(Addr = 0x20000000, Type = 0xFFFFFFF2)  returns 0x00000003 (0000ms, 4223ms total)
T4598 149:255 JLINK_Go() -- CPU_ReadMem(4 bytes @ 0xE0001000) (0002ms, 4225ms total)
T4598 149:257 JLINK_IsHalted()  returns FALSE (0000ms, 4225ms total)
T4598 149:349 JLINK_IsHalted() -- CPU_ReadMem(2 bytes @ 0x20000000)  returns TRUE (0006ms, 4231ms total)
T4598 149:355 JLINK_ReadReg(R15 (PC))  returns 0x20000000 (0000ms, 4225ms total)
T4598 149:355 JLINK_ClrBPEx(BPHandle = 0x00000003)  returns 0x00 (0000ms, 4225ms total)
T4598 149:355 JLINK_ReadReg(R0)  returns 0x00000000 (0000ms, 4225ms total)
T4598 149:358 JLINK_WriteReg(R0, 0x00024000)  returns 0x00 (0000ms, 4225ms total)
T4598 149:358 JLINK_WriteReg(R1, 0x00001000)  returns 0x00 (0000ms, 4225ms total)
T4598 149:358 JLINK_WriteReg(R2, 0x000000FF)  returns 0x00 (0000ms, 4225ms total)
T4598 149:358 JLINK_WriteReg(R3, 0x00000000)  returns 0x00 (0000ms, 4225ms total)
T4598 149:358 JLINK_WriteReg(R4, 0x00000000)  returns 0x00 (0000ms, 4225ms total)
T4598 149:358 JLINK_WriteReg(R5, 0x00000000)  returns 0x00 (0000ms, 4225ms total)
T4598 149:358 JLINK_WriteReg(R6, 0x00000000)  returns 0x00 (0000ms, 4225ms total)
T4598 149:358 JLINK_WriteReg(R7, 0x00000000)  returns 0x00 (0000ms, 4225ms total)
T4598 149:358 JLINK_WriteReg(R8, 0x00000000)  returns 0x00 (0000ms, 4225ms total)
T4598 149:358 JLINK_WriteReg(R9, 0x20000230)  returns 0x00 (0000ms, 4225ms total)
T4598 149:358 JLINK_WriteReg(R10, 0x00000000)  returns 0x00 (0000ms, 4225ms total)
T4598 149:358 JLINK_WriteReg(R11, 0x00000000)  returns 0x00 (0000ms, 4225ms total)
T4598 149:358 JLINK_WriteReg(R12, 0x00000000)  returns 0x00 (0000ms, 4225ms total)
T4598 149:358 JLINK_WriteReg(R13 (SP), 0x20002000)  returns 0x00 (0000ms, 4225ms total)
T4598 149:358 JLINK_WriteReg(R14, 0x20000001)  returns 0x00 (0000ms, 4225ms total)
T4598 149:358 JLINK_WriteReg(R15 (PC), 0x2000011A)  returns 0x00 (0000ms, 4225ms total)
T4598 149:358 JLINK_WriteReg(XPSR, 0x01000000)  returns 0x00 (0000ms, 4225ms total)
T4598 149:358 JLINK_WriteReg(MSP, 0x20002000)  returns 0x00 (0000ms, 4225ms total)
T4598 149:358 JLINK_WriteReg(PSP, 0x20002000)  returns 0x00 (0000ms, 4225ms total)
T4598 149:358 JLINK_WriteReg(CFBP, 0x00000000)  returns 0x00 (0000ms, 4225ms total)
T4598 149:358 JLINK_SetBPEx(Addr = 0x20000000, Type = 0xFFFFFFF2)  returns 0x00000004 (0000ms, 4225ms total)
T4598 149:358 JLINK_Go() -- CPU_ReadMem(4 bytes @ 0xE0001000) (0004ms, 4229ms total)
T4598 149:362 JLINK_IsHalted() -- CPU_ReadMem(2 bytes @ 0x20000000)  returns TRUE (0006ms, 4235ms total)
T4598 149:368 JLINK_ReadReg(R15 (PC))  returns 0x20000000 (0000ms, 4229ms total)
T4598 149:368 JLINK_ClrBPEx(BPHandle = 0x00000004)  returns 0x00 (0000ms, 4229ms total)
T4598 149:368 JLINK_ReadReg(R0)  returns 0x00000001 (0000ms, 4229ms total)
T4598 149:368 JLINK_WriteReg(R0, 0x00024000)  returns 0x00 (0000ms, 4229ms total)
T4598 149:368 JLINK_WriteReg(R1, 0x00001000)  returns 0x00 (0000ms, 4229ms total)
T4598 149:368 JLINK_WriteReg(R2, 0x000000FF)  returns 0x00 (0000ms, 4229ms total)
T4598 149:368 JLINK_WriteReg(R3, 0x00000000)  returns 0x00 (0000ms, 4229ms total)
T4598 149:368 JLINK_WriteReg(R4, 0x00000000)  returns 0x00 (0000ms, 4229ms total)
T4598 149:368 JLINK_WriteReg(R5, 0x00000000)  returns 0x00 (0000ms, 4229ms total)
T4598 149:368 JLINK_WriteReg(R6, 0x00000000)  returns 0x00 (0000ms, 4229ms total)
T4598 149:368 JLINK_WriteReg(R7, 0x00000000)  returns 0x00 (0000ms, 4229ms total)
T4598 149:368 JLINK_WriteReg(R8, 0x00000000)  returns 0x00 (0000ms, 4229ms total)
T4598 149:368 JLINK_WriteReg(R9, 0x20000230)  returns 0x00 (0000ms, 4229ms total)
T4598 149:368 JLINK_WriteReg(R10, 0x00000000)  returns 0x00 (0000ms, 4229ms total)
T4598 149:368 JLINK_WriteReg(R11, 0x00000000)  returns 0x00 (0000ms, 4229ms total)
T4598 149:368 JLINK_WriteReg(R12, 0x00000000)  returns 0x00 (0000ms, 4229ms total)
T4598 149:368 JLINK_WriteReg(R13 (SP), 0x20002000)  returns 0x00 (0000ms, 4229ms total)
T4598 149:368 JLINK_WriteReg(R14, 0x20000001)  returns 0x00 (0000ms, 4229ms total)
T4598 149:368 JLINK_WriteReg(R15 (PC), 0x200000D8)  returns 0x00 (0000ms, 4229ms total)
T4598 149:368 JLINK_WriteReg(XPSR, 0x01000000)  returns 0x00 (0000ms, 4229ms total)
T4598 149:368 JLINK_WriteReg(MSP, 0x20002000)  returns 0x00 (0000ms, 4229ms total)
T4598 149:368 JLINK_WriteReg(PSP, 0x20002000)  returns 0x00 (0000ms, 4229ms total)
T4598 149:368 JLINK_WriteReg(CFBP, 0x00000000)  returns 0x00 (0000ms, 4229ms total)
T4598 149:368 JLINK_SetBPEx(Addr = 0x20000000, Type = 0xFFFFFFF2)  returns 0x00000005 (0000ms, 4229ms total)
T4598 149:368 JLINK_Go() -- CPU_ReadMem(4 bytes @ 0xE0001000) (0002ms, 4231ms total)
T4598 149:370 JLINK_IsHalted()  returns FALSE (0001ms, 4232ms total)
T4598 149:379 JLINK_IsHalted() -- CPU_ReadMem(2 bytes @ 0x20000000)  returns TRUE (0006ms, 4237ms total)
T4598 149:385 JLINK_ReadReg(R15 (PC))  returns 0x20000000 (0000ms, 4231ms total)
T4598 149:385 JLINK_ClrBPEx(BPHandle = 0x00000005)  returns 0x00 (0000ms, 4231ms total)
T4598 149:385 JLINK_ReadReg(R0)  returns 0x00000000 (0000ms, 4231ms total)
T4598 149:390 JLINK_WriteReg(R0, 0x00025000)  returns 0x00 (0000ms, 4231ms total)
T4598 149:390 JLINK_WriteReg(R1, 0x00001000)  returns 0x00 (0000ms, 4231ms total)
T4598 149:390 JLINK_WriteReg(R2, 0x000000FF)  returns 0x00 (0000ms, 4231ms total)
T4598 149:390 JLINK_WriteReg(R3, 0x00000000)  returns 0x00 (0000ms, 4231ms total)
T4598 149:390 JLINK_WriteReg(R4, 0x00000000)  returns 0x00 (0000ms, 4231ms total)
T4598 149:390 JLINK_WriteReg(R5, 0x00000000)  returns 0x00 (0000ms, 4231ms total)
T4598 149:390 JLINK_WriteReg(R6, 0x00000000)  returns 0x00 (0000ms, 4231ms total)
T4598 149:390 JLINK_WriteReg(R7, 0x00000000)  returns 0x00 (0000ms, 4231ms total)
T4598 149:390 JLINK_WriteReg(R8, 0x00000000)  returns 0x00 (0000ms, 4231ms total)
T4598 149:390 JLINK_WriteReg(R9, 0x20000230)  returns 0x00 (0000ms, 4231ms total)
T4598 149:390 JLINK_WriteReg(R10, 0x00000000)  returns 0x00 (0000ms, 4231ms total)
T4598 149:390 JLINK_WriteReg(R11, 0x00000000)  returns 0x00 (0000ms, 4231ms total)
T4598 149:390 JLINK_WriteReg(R12, 0x00000000)  returns 0x00 (0000ms, 4231ms total)
T4598 149:390 JLINK_WriteReg(R13 (SP), 0x20002000)  returns 0x00 (0000ms, 4231ms total)
T4598 149:390 JLINK_WriteReg(R14, 0x20000001)  returns 0x00 (0000ms, 4231ms total)
T4598 149:390 JLINK_WriteReg(R15 (PC), 0x2000011A)  returns 0x00 (0000ms, 4231ms total)
T4598 149:390 JLINK_WriteReg(XPSR, 0x01000000)  returns 0x00 (0000ms, 4231ms total)
T4598 149:390 JLINK_WriteReg(MSP, 0x20002000)  returns 0x00 (0000ms, 4231ms total)
T4598 149:390 JLINK_WriteReg(PSP, 0x20002000)  returns 0x00 (0000ms, 4231ms total)
T4598 149:390 JLINK_WriteReg(CFBP, 0x00000000)  returns 0x00 (0000ms, 4231ms total)
T4598 149:390 JLINK_SetBPEx(Addr = 0x20000000, Type = 0xFFFFFFF2)  returns 0x00000006 (0000ms, 4231ms total)
T4598 149:390 JLINK_Go() -- CPU_ReadMem(4 bytes @ 0xE0001000) (0003ms, 4234ms total)
T4598 149:393 JLINK_IsHalted() -- CPU_ReadMem(2 bytes @ 0x20000000)  returns TRUE (0006ms, 4240ms total)
T4598 149:399 JLINK_ReadReg(R15 (PC))  returns 0x20000000 (0000ms, 4234ms total)
T4598 149:399 JLINK_ClrBPEx(BPHandle = 0x00000006)  returns 0x00 (0000ms, 4234ms total)
T4598 149:399 JLINK_ReadReg(R0)  returns 0x00000001 (0000ms, 4234ms total)
T4598 149:399 JLINK_WriteReg(R0, 0x00025000)  returns 0x00 (0000ms, 4234ms total)
T4598 149:399 JLINK_WriteReg(R1, 0x00001000)  returns 0x00 (0000ms, 4234ms total)
T4598 149:399 JLINK_WriteReg(R2, 0x000000FF)  returns 0x00 (0000ms, 4234ms total)
T4598 149:399 JLINK_WriteReg(R3, 0x00000000)  returns 0x00 (0000ms, 4234ms total)
T4598 149:399 JLINK_WriteReg(R4, 0x00000000)  returns 0x00 (0000ms, 4234ms total)
T4598 149:399 JLINK_WriteReg(R5, 0x00000000)  returns 0x00 (0000ms, 4234ms total)
T4598 149:399 JLINK_WriteReg(R6, 0x00000000)  returns 0x00 (0000ms, 4234ms total)
T4598 149:399 JLINK_WriteReg(R7, 0x00000000)  returns 0x00 (0000ms, 4234ms total)
T4598 149:399 JLINK_WriteReg(R8, 0x00000000)  returns 0x00 (0000ms, 4234ms total)
T4598 149:399 JLINK_WriteReg(R9, 0x20000230)  returns 0x00 (0000ms, 4234ms total)
T4598 149:399 JLINK_WriteReg(R10, 0x00000000)  returns 0x00 (0000ms, 4234ms total)
T4598 149:399 JLINK_WriteReg(R11, 0x00000000)  returns 0x00 (0000ms, 4234ms total)
T4598 149:399 JLINK_WriteReg(R12, 0x00000000)  returns 0x00 (0000ms, 4234ms total)
T4598 149:399 JLINK_WriteReg(R13 (SP), 0x20002000)  returns 0x00 (0000ms, 4234ms total)
T4598 149:399 JLINK_WriteReg(R14, 0x20000001)  returns 0x00 (0000ms, 4234ms total)
T4598 149:399 JLINK_WriteReg(R15 (PC), 0x200000D8)  returns 0x00 (0000ms, 4234ms total)
T4598 149:399 JLINK_WriteReg(XPSR, 0x01000000)  returns 0x00 (0000ms, 4234ms total)
T4598 149:399 JLINK_WriteReg(MSP, 0x20002000)  returns 0x00 (0000ms, 4234ms total)
T4598 149:399 JLINK_WriteReg(PSP, 0x20002000)  returns 0x00 (0000ms, 4234ms total)
T4598 149:399 JLINK_WriteReg(CFBP, 0x00000000)  returns 0x00 (0000ms, 4234ms total)
T4598 149:399 JLINK_SetBPEx(Addr = 0x20000000, Type = 0xFFFFFFF2)  returns 0x00000007 (0000ms, 4234ms total)
T4598 149:399 JLINK_Go() -- CPU_ReadMem(4 bytes @ 0xE0001000) (0003ms, 4237ms total)
T4598 149:402 JLINK_IsHalted() -- CPU_ReadMem(2 bytes @ 0x20000000)  returns TRUE (0050ms, 4287ms total)
T4598 149:452 JLINK_ReadReg(R15 (PC))  returns 0x20000000 (0000ms, 4237ms total)
T4598 149:452 JLINK_ClrBPEx(BPHandle = 0x00000007)  returns 0x00 (0000ms, 4237ms total)
T4598 149:452 JLINK_ReadReg(R0)  returns 0x00000000 (0000ms, 4237ms total)
T4598 149:452 JLINK_WriteReg(R0, 0x00026000)  returns 0x00 (0000ms, 4237ms total)
T4598 149:452 JLINK_WriteReg(R1, 0x00001000)  returns 0x00 (0000ms, 4237ms total)
T4598 149:452 JLINK_WriteReg(R2, 0x000000FF)  returns 0x00 (0000ms, 4237ms total)
T4598 149:452 JLINK_WriteReg(R3, 0x00000000)  returns 0x00 (0000ms, 4237ms total)
T4598 149:452 JLINK_WriteReg(R4, 0x00000000)  returns 0x00 (0000ms, 4237ms total)
T4598 149:452 JLINK_WriteReg(R5, 0x00000000)  returns 0x00 (0000ms, 4237ms total)
T4598 149:452 JLINK_WriteReg(R6, 0x00000000)  returns 0x00 (0001ms, 4238ms total)
T4598 149:453 JLINK_WriteReg(R7, 0x00000000)  returns 0x00 (0000ms, 4238ms total)
T4598 149:453 JLINK_WriteReg(R8, 0x00000000)  returns 0x00 (0000ms, 4238ms total)
T4598 149:453 JLINK_WriteReg(R9, 0x20000230)  returns 0x00 (0000ms, 4238ms total)
T4598 149:453 JLINK_WriteReg(R10, 0x00000000)  returns 0x00 (0000ms, 4238ms total)
T4598 149:453 JLINK_WriteReg(R11, 0x00000000)  returns 0x00 (0000ms, 4238ms total)
T4598 149:453 JLINK_WriteReg(R12, 0x00000000)  returns 0x00 (0000ms, 4238ms total)
T4598 149:453 JLINK_WriteReg(R13 (SP), 0x20002000)  returns 0x00 (0000ms, 4238ms total)
T4598 149:453 JLINK_WriteReg(R14, 0x20000001)  returns 0x00 (0000ms, 4238ms total)
T4598 149:453 JLINK_WriteReg(R15 (PC), 0x2000011A)  returns 0x00 (0000ms, 4238ms total)
T4598 149:453 JLINK_WriteReg(XPSR, 0x01000000)  returns 0x00 (0000ms, 4238ms total)
T4598 149:453 JLINK_WriteReg(MSP, 0x20002000)  returns 0x00 (0000ms, 4238ms total)
T4598 149:453 JLINK_WriteReg(PSP, 0x20002000)  returns 0x00 (0000ms, 4238ms total)
T4598 149:453 JLINK_WriteReg(CFBP, 0x00000000)  returns 0x00 (0000ms, 4238ms total)
T4598 149:453 JLINK_SetBPEx(Addr = 0x20000000, Type = 0xFFFFFFF2)  returns 0x00000008 (0000ms, 4238ms total)
T4598 149:453 JLINK_Go() -- CPU_ReadMem(4 bytes @ 0xE0001000) (0003ms, 4241ms total)
T4598 149:456 JLINK_IsHalted() -- CPU_ReadMem(2 bytes @ 0x20000000)  returns TRUE (0006ms, 4247ms total)
T4598 149:462 JLINK_ReadReg(R15 (PC))  returns 0x20000000 (0000ms, 4241ms total)
T4598 149:462 JLINK_ClrBPEx(BPHandle = 0x00000008)  returns 0x00 (0000ms, 4241ms total)
T4598 149:462 JLINK_ReadReg(R0)  returns 0x00000001 (0000ms, 4241ms total)
T4598 149:462 JLINK_WriteReg(R0, 0x00026000)  returns 0x00 (0000ms, 4241ms total)
T4598 149:462 JLINK_WriteReg(R1, 0x00001000)  returns 0x00 (0000ms, 4241ms total)
T4598 149:462 JLINK_WriteReg(R2, 0x000000FF)  returns 0x00 (0000ms, 4241ms total)
T4598 149:462 JLINK_WriteReg(R3, 0x00000000)  returns 0x00 (0000ms, 4241ms total)
T4598 149:462 JLINK_WriteReg(R4, 0x00000000)  returns 0x00 (0000ms, 4241ms total)
T4598 149:462 JLINK_WriteReg(R5, 0x00000000)  returns 0x00 (0000ms, 4241ms total)
T4598 149:462 JLINK_WriteReg(R6, 0x00000000)  returns 0x00 (0000ms, 4241ms total)
T4598 149:462 JLINK_WriteReg(R7, 0x00000000)  returns 0x00 (0000ms, 4241ms total)
T4598 149:462 JLINK_WriteReg(R8, 0x00000000)  returns 0x00 (0000ms, 4241ms total)
T4598 149:462 JLINK_WriteReg(R9, 0x20000230)  returns 0x00 (0000ms, 4241ms total)
T4598 149:462 JLINK_WriteReg(R10, 0x00000000)  returns 0x00 (0000ms, 4241ms total)
T4598 149:462 JLINK_WriteReg(R11, 0x00000000)  returns 0x00 (0000ms, 4241ms total)
T4598 149:462 JLINK_WriteReg(R12, 0x00000000)  returns 0x00 (0000ms, 4241ms total)
T4598 149:462 JLINK_WriteReg(R13 (SP), 0x20002000)  returns 0x00 (0000ms, 4241ms total)
T4598 149:462 JLINK_WriteReg(R14, 0x20000001)  returns 0x00 (0000ms, 4241ms total)
T4598 149:462 JLINK_WriteReg(R15 (PC), 0x200000D8)  returns 0x00 (0000ms, 4241ms total)
T4598 149:462 JLINK_WriteReg(XPSR, 0x01000000)  returns 0x00 (0000ms, 4241ms total)
T4598 149:462 JLINK_WriteReg(MSP, 0x20002000)  returns 0x00 (0000ms, 4241ms total)
T4598 149:462 JLINK_WriteReg(PSP, 0x20002000)  returns 0x00 (0000ms, 4241ms total)
T4598 149:462 JLINK_WriteReg(CFBP, 0x00000000)  returns 0x00 (0000ms, 4241ms total)
T4598 149:462 JLINK_SetBPEx(Addr = 0x20000000, Type = 0xFFFFFFF2)  returns 0x00000009 (0000ms, 4241ms total)
T4598 149:462 JLINK_Go() -- CPU_ReadMem(4 bytes @ 0xE0001000) (0003ms, 4244ms total)
T4598 149:465 JLINK_IsHalted()  returns FALSE (0000ms, 4244ms total)
T4598 149:474 JLINK_IsHalted() -- CPU_ReadMem(2 bytes @ 0x20000000)  returns TRUE (0006ms, 4250ms total)
T4598 149:480 JLINK_ReadReg(R15 (PC))  returns 0x20000000 (0000ms, 4244ms total)
T4598 149:480 JLINK_ClrBPEx(BPHandle = 0x00000009)  returns 0x00 (0001ms, 4245ms total)
T4598 149:481 JLINK_ReadReg(R0)  returns 0x00000000 (0000ms, 4245ms total)
T4598 149:481 JLINK_WriteReg(R0, 0x00027000)  returns 0x00 (0000ms, 4245ms total)
T4598 149:481 JLINK_WriteReg(R1, 0x00001000)  returns 0x00 (0000ms, 4245ms total)
T4598 149:481 JLINK_WriteReg(R2, 0x000000FF)  returns 0x00 (0000ms, 4245ms total)
T4598 149:481 JLINK_WriteReg(R3, 0x00000000)  returns 0x00 (0000ms, 4245ms total)
T4598 149:481 JLINK_WriteReg(R4, 0x00000000)  returns 0x00 (0000ms, 4245ms total)
T4598 149:481 JLINK_WriteReg(R5, 0x00000000)  returns 0x00 (0000ms, 4245ms total)
T4598 149:481 JLINK_WriteReg(R6, 0x00000000)  returns 0x00 (0000ms, 4245ms total)
T4598 149:481 JLINK_WriteReg(R7, 0x00000000)  returns 0x00 (0000ms, 4245ms total)
T4598 149:481 JLINK_WriteReg(R8, 0x00000000)  returns 0x00 (0000ms, 4245ms total)
T4598 149:481 JLINK_WriteReg(R9, 0x20000230)  returns 0x00 (0000ms, 4245ms total)
T4598 149:481 JLINK_WriteReg(R10, 0x00000000)  returns 0x00 (0000ms, 4245ms total)
T4598 149:481 JLINK_WriteReg(R11, 0x00000000)  returns 0x00 (0000ms, 4245ms total)
T4598 149:481 JLINK_WriteReg(R12, 0x00000000)  returns 0x00 (0000ms, 4245ms total)
T4598 149:481 JLINK_WriteReg(R13 (SP), 0x20002000)  returns 0x00 (0000ms, 4245ms total)
T4598 149:481 JLINK_WriteReg(R14, 0x20000001)  returns 0x00 (0000ms, 4245ms total)
T4598 149:481 JLINK_WriteReg(R15 (PC), 0x2000011A)  returns 0x00 (0000ms, 4245ms total)
T4598 149:481 JLINK_WriteReg(XPSR, 0x01000000)  returns 0x00 (0000ms, 4245ms total)
T4598 149:481 JLINK_WriteReg(MSP, 0x20002000)  returns 0x00 (0000ms, 4245ms total)
T4598 149:481 JLINK_WriteReg(PSP, 0x20002000)  returns 0x00 (0000ms, 4245ms total)
T4598 149:481 JLINK_WriteReg(CFBP, 0x00000000)  returns 0x00 (0000ms, 4245ms total)
T4598 149:481 JLINK_SetBPEx(Addr = 0x20000000, Type = 0xFFFFFFF2)  returns 0x0000000A (0000ms, 4245ms total)
T4598 149:481 JLINK_Go() -- CPU_ReadMem(4 bytes @ 0xE0001000) (0004ms, 4249ms total)
T4598 149:485 JLINK_IsHalted() -- CPU_ReadMem(2 bytes @ 0x20000000)  returns TRUE (0005ms, 4254ms total)
T4598 149:490 JLINK_ReadReg(R15 (PC))  returns 0x20000000 (0000ms, 4249ms total)
T4598 149:490 JLINK_ClrBPEx(BPHandle = 0x0000000A)  returns 0x00 (0000ms, 4249ms total)
T4598 149:490 JLINK_ReadReg(R0)  returns 0x00000001 (0000ms, 4249ms total)
T4598 149:490 JLINK_WriteReg(R0, 0x00027000)  returns 0x00 (0000ms, 4249ms total)
T4598 149:490 JLINK_WriteReg(R1, 0x00001000)  returns 0x00 (0000ms, 4249ms total)
T4598 149:490 JLINK_WriteReg(R2, 0x000000FF)  returns 0x00 (0000ms, 4249ms total)
T4598 149:490 JLINK_WriteReg(R3, 0x00000000)  returns 0x00 (0000ms, 4249ms total)
T4598 149:490 JLINK_WriteReg(R4, 0x00000000)  returns 0x00 (0000ms, 4249ms total)
T4598 149:490 JLINK_WriteReg(R5, 0x00000000)  returns 0x00 (0000ms, 4249ms total)
T4598 149:490 JLINK_WriteReg(R6, 0x00000000)  returns 0x00 (0000ms, 4249ms total)
T4598 149:490 JLINK_WriteReg(R7, 0x00000000)  returns 0x00 (0000ms, 4249ms total)
T4598 149:490 JLINK_WriteReg(R8, 0x00000000)  returns 0x00 (0000ms, 4249ms total)
T4598 149:490 JLINK_WriteReg(R9, 0x20000230)  returns 0x00 (0001ms, 4250ms total)
T4598 149:491 JLINK_WriteReg(R10, 0x00000000)  returns 0x00 (0000ms, 4250ms total)
T4598 149:491 JLINK_WriteReg(R11, 0x00000000)  returns 0x00 (0000ms, 4250ms total)
T4598 149:491 JLINK_WriteReg(R12, 0x00000000)  returns 0x00 (0000ms, 4250ms total)
T4598 149:491 JLINK_WriteReg(R13 (SP), 0x20002000)  returns 0x00 (0000ms, 4250ms total)
T4598 149:491 JLINK_WriteReg(R14, 0x20000001)  returns 0x00 (0000ms, 4250ms total)
T4598 149:491 JLINK_WriteReg(R15 (PC), 0x200000D8)  returns 0x00 (0000ms, 4250ms total)
T4598 149:491 JLINK_WriteReg(XPSR, 0x01000000)  returns 0x00 (0000ms, 4250ms total)
T4598 149:491 JLINK_WriteReg(MSP, 0x20002000)  returns 0x00 (0000ms, 4250ms total)
T4598 149:491 JLINK_WriteReg(PSP, 0x20002000)  returns 0x00 (0000ms, 4250ms total)
T4598 149:491 JLINK_WriteReg(CFBP, 0x00000000)  returns 0x00 (0000ms, 4250ms total)
T4598 149:491 JLINK_SetBPEx(Addr = 0x20000000, Type = 0xFFFFFFF2)  returns 0x0000000B (0000ms, 4250ms total)
T4598 149:491 JLINK_Go() -- CPU_ReadMem(4 bytes @ 0xE0001000) (0002ms, 4252ms total)
T4598 149:493 JLINK_IsHalted()  returns FALSE (0001ms, 4253ms total)
T4598 149:504 JLINK_IsHalted() -- CPU_ReadMem(2 bytes @ 0x20000000)  returns TRUE (0006ms, 4258ms total)
T4598 149:510 JLINK_ReadReg(R15 (PC))  returns 0x20000000 (0000ms, 4252ms total)
T4598 149:510 JLINK_ClrBPEx(BPHandle = 0x0000000B)  returns 0x00 (0000ms, 4252ms total)
T4598 149:510 JLINK_ReadReg(R0)  returns 0x00000000 (0000ms, 4252ms total)
T4598 149:514 JLINK_WriteReg(R0, 0x00028000)  returns 0x00 (0000ms, 4252ms total)
T4598 149:514 JLINK_WriteReg(R1, 0x00001000)  returns 0x00 (0000ms, 4252ms total)
T4598 149:514 JLINK_WriteReg(R2, 0x000000FF)  returns 0x00 (0000ms, 4252ms total)
T4598 149:514 JLINK_WriteReg(R3, 0x00000000)  returns 0x00 (0000ms, 4252ms total)
T4598 149:514 JLINK_WriteReg(R4, 0x00000000)  returns 0x00 (0000ms, 4252ms total)
T4598 149:514 JLINK_WriteReg(R5, 0x00000000)  returns 0x00 (0000ms, 4252ms total)
T4598 149:514 JLINK_WriteReg(R6, 0x00000000)  returns 0x00 (0000ms, 4252ms total)
T4598 149:514 JLINK_WriteReg(R7, 0x00000000)  returns 0x00 (0000ms, 4252ms total)
T4598 149:514 JLINK_WriteReg(R8, 0x00000000)  returns 0x00 (0000ms, 4252ms total)
T4598 149:514 JLINK_WriteReg(R9, 0x20000230)  returns 0x00 (0000ms, 4252ms total)
T4598 149:514 JLINK_WriteReg(R10, 0x00000000)  returns 0x00 (0000ms, 4252ms total)
T4598 149:514 JLINK_WriteReg(R11, 0x00000000)  returns 0x00 (0000ms, 4252ms total)
T4598 149:514 JLINK_WriteReg(R12, 0x00000000)  returns 0x00 (0000ms, 4252ms total)
T4598 149:514 JLINK_WriteReg(R13 (SP), 0x20002000)  returns 0x00 (0000ms, 4252ms total)
T4598 149:514 JLINK_WriteReg(R14, 0x20000001)  returns 0x00 (0000ms, 4252ms total)
T4598 149:514 JLINK_WriteReg(R15 (PC), 0x2000011A)  returns 0x00 (0000ms, 4252ms total)
T4598 149:514 JLINK_WriteReg(XPSR, 0x01000000)  returns 0x00 (0000ms, 4252ms total)
T4598 149:514 JLINK_WriteReg(MSP, 0x20002000)  returns 0x00 (0000ms, 4252ms total)
T4598 149:514 JLINK_WriteReg(PSP, 0x20002000)  returns 0x00 (0000ms, 4252ms total)
T4598 149:514 JLINK_WriteReg(CFBP, 0x00000000)  returns 0x00 (0000ms, 4252ms total)
T4598 149:514 JLINK_SetBPEx(Addr = 0x20000000, Type = 0xFFFFFFF2)  returns 0x0000000C (0000ms, 4252ms total)
T4598 149:514 JLINK_Go() -- CPU_ReadMem(4 bytes @ 0xE0001000) (0042ms, 4294ms total)
T4598 149:556 JLINK_IsHalted() -- CPU_ReadMem(2 bytes @ 0x20000000)  returns TRUE (0006ms, 4300ms total)
T4598 149:562 JLINK_ReadReg(R15 (PC))  returns 0x20000000 (0000ms, 4294ms total)
T4598 149:562 JLINK_ClrBPEx(BPHandle = 0x0000000C)  returns 0x00 (0000ms, 4294ms total)
T4598 149:562 JLINK_ReadReg(R0)  returns 0x00000001 (0000ms, 4294ms total)
T4598 149:562 JLINK_WriteReg(R0, 0x00028000)  returns 0x00 (0000ms, 4294ms total)
T4598 149:562 JLINK_WriteReg(R1, 0x00001000)  returns 0x00 (0000ms, 4294ms total)
T4598 149:562 JLINK_WriteReg(R2, 0x000000FF)  returns 0x00 (0000ms, 4294ms total)
T4598 149:562 JLINK_WriteReg(R3, 0x00000000)  returns 0x00 (0000ms, 4294ms total)
T4598 149:562 JLINK_WriteReg(R4, 0x00000000)  returns 0x00 (0000ms, 4294ms total)
T4598 149:562 JLINK_WriteReg(R5, 0x00000000)  returns 0x00 (0000ms, 4294ms total)
T4598 149:562 JLINK_WriteReg(R6, 0x00000000)  returns 0x00 (0000ms, 4294ms total)
T4598 149:562 JLINK_WriteReg(R7, 0x00000000)  returns 0x00 (0000ms, 4294ms total)
T4598 149:562 JLINK_WriteReg(R8, 0x00000000)  returns 0x00 (0000ms, 4294ms total)
T4598 149:562 JLINK_WriteReg(R9, 0x20000230)  returns 0x00 (0000ms, 4294ms total)
T4598 149:562 JLINK_WriteReg(R10, 0x00000000)  returns 0x00 (0000ms, 4294ms total)
T4598 149:562 JLINK_WriteReg(R11, 0x00000000)  returns 0x00 (0000ms, 4294ms total)
T4598 149:562 JLINK_WriteReg(R12, 0x00000000)  returns 0x00 (0000ms, 4294ms total)
T4598 149:562 JLINK_WriteReg(R13 (SP), 0x20002000)  returns 0x00 (0000ms, 4294ms total)
T4598 149:562 JLINK_WriteReg(R14, 0x20000001)  returns 0x00 (0000ms, 4294ms total)
T4598 149:562 JLINK_WriteReg(R15 (PC), 0x200000D8)  returns 0x00 (0000ms, 4294ms total)
T4598 149:562 JLINK_WriteReg(XPSR, 0x01000000)  returns 0x00 (0000ms, 4294ms total)
T4598 149:562 JLINK_WriteReg(MSP, 0x20002000)  returns 0x00 (0000ms, 4294ms total)
T4598 149:562 JLINK_WriteReg(PSP, 0x20002000)  returns 0x00 (0000ms, 4294ms total)
T4598 149:562 JLINK_WriteReg(CFBP, 0x00000000)  returns 0x00 (0000ms, 4294ms total)
T4598 149:562 JLINK_SetBPEx(Addr = 0x20000000, Type = 0xFFFFFFF2)  returns 0x0000000D (0000ms, 4294ms total)
T4598 149:562 JLINK_Go() -- CPU_ReadMem(4 bytes @ 0xE0001000) (0003ms, 4297ms total)
T4598 149:565 JLINK_IsHalted()  returns FALSE (0000ms, 4297ms total)
T4598 149:571 JLINK_IsHalted() -- CPU_ReadMem(2 bytes @ 0x20000000)  returns TRUE (0005ms, 4302ms total)
T4598 149:576 JLINK_ReadReg(R15 (PC))  returns 0x20000000 (0000ms, 4297ms total)
T4598 149:576 JLINK_ClrBPEx(BPHandle = 0x0000000D)  returns 0x00 (0000ms, 4297ms total)
T4598 149:576 JLINK_ReadReg(R0)  returns 0x00000000 (0000ms, 4297ms total)
T4598 149:579 JLINK_WriteReg(R0, 0x00029000)  returns 0x00 (0000ms, 4297ms total)
T4598 149:579 JLINK_WriteReg(R1, 0x00001000)  returns 0x00 (0000ms, 4297ms total)
T4598 149:579 JLINK_WriteReg(R2, 0x000000FF)  returns 0x00 (0000ms, 4297ms total)
T4598 149:579 JLINK_WriteReg(R3, 0x00000000)  returns 0x00 (0000ms, 4297ms total)
T4598 149:579 JLINK_WriteReg(R4, 0x00000000)  returns 0x00 (0000ms, 4297ms total)
T4598 149:579 JLINK_WriteReg(R5, 0x00000000)  returns 0x00 (0000ms, 4297ms total)
T4598 149:579 JLINK_WriteReg(R6, 0x00000000)  returns 0x00 (0000ms, 4297ms total)
T4598 149:579 JLINK_WriteReg(R7, 0x00000000)  returns 0x00 (0000ms, 4297ms total)
T4598 149:579 JLINK_WriteReg(R8, 0x00000000)  returns 0x00 (0000ms, 4297ms total)
T4598 149:579 JLINK_WriteReg(R9, 0x20000230)  returns 0x00 (0000ms, 4297ms total)
T4598 149:579 JLINK_WriteReg(R10, 0x00000000)  returns 0x00 (0000ms, 4297ms total)
T4598 149:579 JLINK_WriteReg(R11, 0x00000000)  returns 0x00 (0000ms, 4297ms total)
T4598 149:579 JLINK_WriteReg(R12, 0x00000000)  returns 0x00 (0000ms, 4297ms total)
T4598 149:579 JLINK_WriteReg(R13 (SP), 0x20002000)  returns 0x00 (0000ms, 4297ms total)
T4598 149:579 JLINK_WriteReg(R14, 0x20000001)  returns 0x00 (0000ms, 4297ms total)
T4598 149:579 JLINK_WriteReg(R15 (PC), 0x2000011A)  returns 0x00 (0000ms, 4297ms total)
T4598 149:579 JLINK_WriteReg(XPSR, 0x01000000)  returns 0x00 (0000ms, 4297ms total)
T4598 149:579 JLINK_WriteReg(MSP, 0x20002000)  returns 0x00 (0000ms, 4297ms total)
T4598 149:579 JLINK_WriteReg(PSP, 0x20002000)  returns 0x00 (0000ms, 4297ms total)
T4598 149:579 JLINK_WriteReg(CFBP, 0x00000000)  returns 0x00 (0000ms, 4297ms total)
T4598 149:579 JLINK_SetBPEx(Addr = 0x20000000, Type = 0xFFFFFFF2)  returns 0x0000000E (0000ms, 4297ms total)
T4598 149:580 JLINK_Go() -- CPU_ReadMem(4 bytes @ 0xE0001000) (0003ms, 4300ms total)
T4598 149:583 JLINK_IsHalted() -- CPU_ReadMem(2 bytes @ 0x20000000)  returns TRUE (0005ms, 4305ms total)
T4598 149:588 JLINK_ReadReg(R15 (PC))  returns 0x20000000 (0000ms, 4300ms total)
T4598 149:588 JLINK_ClrBPEx(BPHandle = 0x0000000E)  returns 0x00 (0000ms, 4300ms total)
T4598 149:588 JLINK_ReadReg(R0)  returns 0x00000001 (0000ms, 4300ms total)
T4598 149:588 JLINK_WriteReg(R0, 0x00029000)  returns 0x00 (0000ms, 4300ms total)
T4598 149:588 JLINK_WriteReg(R1, 0x00001000)  returns 0x00 (0000ms, 4300ms total)
T4598 149:588 JLINK_WriteReg(R2, 0x000000FF)  returns 0x00 (0000ms, 4300ms total)
T4598 149:588 JLINK_WriteReg(R3, 0x00000000)  returns 0x00 (0000ms, 4300ms total)
T4598 149:588 JLINK_WriteReg(R4, 0x00000000)  returns 0x00 (0000ms, 4300ms total)
T4598 149:589 JLINK_WriteReg(R5, 0x00000000)  returns 0x00 (0000ms, 4301ms total)
T4598 149:589 JLINK_WriteReg(R6, 0x00000000)  returns 0x00 (0000ms, 4301ms total)
T4598 149:589 JLINK_WriteReg(R7, 0x00000000)  returns 0x00 (0000ms, 4301ms total)
T4598 149:589 JLINK_WriteReg(R8, 0x00000000)  returns 0x00 (0000ms, 4301ms total)
T4598 149:589 JLINK_WriteReg(R9, 0x20000230)  returns 0x00 (0000ms, 4301ms total)
T4598 149:589 JLINK_WriteReg(R10, 0x00000000)  returns 0x00 (0000ms, 4301ms total)
T4598 149:589 JLINK_WriteReg(R11, 0x00000000)  returns 0x00 (0000ms, 4301ms total)
T4598 149:589 JLINK_WriteReg(R12, 0x00000000)  returns 0x00 (0000ms, 4301ms total)
T4598 149:589 JLINK_WriteReg(R13 (SP), 0x20002000)  returns 0x00 (0000ms, 4301ms total)
T4598 149:589 JLINK_WriteReg(R14, 0x20000001)  returns 0x00 (0000ms, 4301ms total)
T4598 149:589 JLINK_WriteReg(R15 (PC), 0x200000D8)  returns 0x00 (0000ms, 4301ms total)
T4598 149:589 JLINK_WriteReg(XPSR, 0x01000000)  returns 0x00 (0000ms, 4301ms total)
T4598 149:589 JLINK_WriteReg(MSP, 0x20002000)  returns 0x00 (0000ms, 4301ms total)
T4598 149:589 JLINK_WriteReg(PSP, 0x20002000)  returns 0x00 (0000ms, 4301ms total)
T4598 149:589 JLINK_WriteReg(CFBP, 0x00000000)  returns 0x00 (0000ms, 4301ms total)
T4598 149:589 JLINK_SetBPEx(Addr = 0x20000000, Type = 0xFFFFFFF2)  returns 0x0000000F (0000ms, 4301ms total)
T4598 149:589 JLINK_Go() -- CPU_ReadMem(4 bytes @ 0xE0001000) (0002ms, 4303ms total)
T4598 149:591 JLINK_IsHalted()  returns FALSE (0001ms, 4304ms total)
T4598 149:595 JLINK_IsHalted() -- CPU_ReadMem(2 bytes @ 0x20000000)  returns TRUE (0006ms, 4309ms total)
T4598 149:601 JLINK_ReadReg(R15 (PC))  returns 0x20000000 (0000ms, 4303ms total)
T4598 149:601 JLINK_ClrBPEx(BPHandle = 0x0000000F)  returns 0x00 (0000ms, 4303ms total)
T4598 149:601 JLINK_ReadReg(R0)  returns 0x00000000 (0000ms, 4303ms total)
T4598 149:602 JLINK_WriteReg(R0, 0x00000001)  returns 0x00 (0000ms, 4303ms total)
T4598 149:602 JLINK_WriteReg(R1, 0x00001000)  returns 0x00 (0000ms, 4303ms total)
T4598 149:602 JLINK_WriteReg(R2, 0x000000FF)  returns 0x00 (0000ms, 4303ms total)
T4598 149:602 JLINK_WriteReg(R3, 0x00000000)  returns 0x00 (0000ms, 4303ms total)
T4598 149:602 JLINK_WriteReg(R4, 0x00000000)  returns 0x00 (0000ms, 4303ms total)
T4598 149:602 JLINK_WriteReg(R5, 0x00000000)  returns 0x00 (0000ms, 4303ms total)
T4598 149:602 JLINK_WriteReg(R6, 0x00000000)  returns 0x00 (0000ms, 4303ms total)
T4598 149:602 JLINK_WriteReg(R7, 0x00000000)  returns 0x00 (0000ms, 4303ms total)
T4598 149:602 JLINK_WriteReg(R8, 0x00000000)  returns 0x00 (0000ms, 4303ms total)
T4598 149:602 JLINK_WriteReg(R9, 0x20000230)  returns 0x00 (0000ms, 4303ms total)
T4598 149:602 JLINK_WriteReg(R10, 0x00000000)  returns 0x00 (0000ms, 4303ms total)
T4598 149:602 JLINK_WriteReg(R11, 0x00000000)  returns 0x00 (0000ms, 4303ms total)
T4598 149:602 JLINK_WriteReg(R12, 0x00000000)  returns 0x00 (0000ms, 4303ms total)
T4598 149:602 JLINK_WriteReg(R13 (SP), 0x20002000)  returns 0x00 (0000ms, 4303ms total)
T4598 149:602 JLINK_WriteReg(R14, 0x20000001)  returns 0x00 (0000ms, 4303ms total)
T4598 149:602 JLINK_WriteReg(R15 (PC), 0x2000008E)  returns 0x00 (0000ms, 4303ms total)
T4598 149:602 JLINK_WriteReg(XPSR, 0x01000000)  returns 0x00 (0000ms, 4303ms total)
T4598 149:602 JLINK_WriteReg(MSP, 0x20002000)  returns 0x00 (0000ms, 4303ms total)
T4598 149:602 JLINK_WriteReg(PSP, 0x20002000)  returns 0x00 (0000ms, 4303ms total)
T4598 149:602 JLINK_WriteReg(CFBP, 0x00000000)  returns 0x00 (0000ms, 4303ms total)
T4598 149:602 JLINK_SetBPEx(Addr = 0x20000000, Type = 0xFFFFFFF2)  returns 0x00000010 (0000ms, 4303ms total)
T4598 149:602 JLINK_Go() -- CPU_ReadMem(4 bytes @ 0xE0001000) (0005ms, 4308ms total)
T4598 149:607 JLINK_IsHalted() -- CPU_ReadMem(2 bytes @ 0x20000000)  returns TRUE (0005ms, 4313ms total)
T4598 149:612 JLINK_ReadReg(R15 (PC))  returns 0x20000000 (0000ms, 4308ms total)
T4598 149:612 JLINK_ClrBPEx(BPHandle = 0x00000010)  returns 0x00 (0000ms, 4308ms total)
T4598 149:612 JLINK_ReadReg(R0)  returns 0x00000000 (0000ms, 4308ms total)
T4598 149:676 JLINK_WriteMem(0x20000000, 0x0234 Bytes, ...) - Data: 00 BE 0A E0 0D 78 2D 06 68 40 08 24 40 00 00 D3 ... -- CPU_WriteMem(564 bytes @ 0x20000000)  returns 0x234 (0006ms, 4314ms total)
T4598 149:683 JLINK_WriteReg(R0, 0x00000000)  returns 0x00 (0000ms, 4314ms total)
T4598 149:683 JLINK_WriteReg(R1, 0x03D09000)  returns 0x00 (0000ms, 4314ms total)
T4598 149:683 JLINK_WriteReg(R2, 0x00000002)  returns 0x00 (0000ms, 4314ms total)
T4598 149:683 JLINK_WriteReg(R3, 0x00000000)  returns 0x00 (0000ms, 4314ms total)
T4598 149:683 JLINK_WriteReg(R4, 0x00000000)  returns 0x00 (0000ms, 4314ms total)
T4598 149:683 JLINK_WriteReg(R5, 0x00000000)  returns 0x00 (0000ms, 4314ms total)
T4598 149:683 JLINK_WriteReg(R6, 0x00000000)  returns 0x00 (0000ms, 4314ms total)
T4598 149:683 JLINK_WriteReg(R7, 0x00000000)  returns 0x00 (0000ms, 4314ms total)
T4598 149:683 JLINK_WriteReg(R8, 0x00000000)  returns 0x00 (0000ms, 4314ms total)
T4598 149:683 JLINK_WriteReg(R9, 0x20000230)  returns 0x00 (0000ms, 4314ms total)
T4598 149:683 JLINK_WriteReg(R10, 0x00000000)  returns 0x00 (0000ms, 4314ms total)
T4598 149:683 JLINK_WriteReg(R11, 0x00000000)  returns 0x00 (0000ms, 4314ms total)
T4598 149:683 JLINK_WriteReg(R12, 0x00000000)  returns 0x00 (0000ms, 4314ms total)
T4598 149:683 JLINK_WriteReg(R13 (SP), 0x20002000)  returns 0x00 (0000ms, 4314ms total)
T4598 149:683 JLINK_WriteReg(R14, 0x20000001)  returns 0x00 (0000ms, 4314ms total)
T4598 149:683 JLINK_WriteReg(R15 (PC), 0x2000003C)  returns 0x00 (0000ms, 4314ms total)
T4598 149:683 JLINK_WriteReg(XPSR, 0x01000000)  returns 0x00 (0000ms, 4314ms total)
T4598 149:683 JLINK_WriteReg(MSP, 0x20002000)  returns 0x00 (0000ms, 4314ms total)
T4598 149:683 JLINK_WriteReg(PSP, 0x20002000)  returns 0x00 (0000ms, 4314ms total)
T4598 149:683 JLINK_WriteReg(CFBP, 0x00000000)  returns 0x00 (0000ms, 4314ms total)
T4598 149:683 JLINK_SetBPEx(Addr = 0x20000000, Type = 0xFFFFFFF2) -- CPU_ReadMem(2 bytes @ 0x20000000)  returns 0x00000011 (0001ms, 4315ms total)
T4598 149:684 JLINK_Go() -- CPU_WriteMem(2 bytes @ 0x20000000) -- CPU_ReadMem(4 bytes @ 0xE0001000) (0003ms, 4318ms total)
T4598 149:687 JLINK_IsHalted() -- CPU_ReadMem(2 bytes @ 0x20000000)  returns TRUE (0006ms, 4324ms total)
T4598 149:693 JLINK_ReadReg(R15 (PC))  returns 0x20000000 (0000ms, 4318ms total)
T4598 149:693 JLINK_ClrBPEx(BPHandle = 0x00000011)  returns 0x00 (0000ms, 4318ms total)
T4598 149:693 JLINK_ReadReg(R0)  returns 0x00000000 (0000ms, 4318ms total)
T4598 149:693 JLINK_WriteMem(0x20000234, 0x01CC Bytes, ...) - Data: B8 5B 00 20 E9 33 02 00 F1 33 02 00 F3 33 02 00 ... -- CPU_WriteMem(460 bytes @ 0x20000234)  returns 0x1CC (0006ms, 4324ms total)
T4598 149:699 JLINK_WriteMem(0x20000400, 0x0400 Bytes, ...) - Data: 00 00 00 00 00 00 00 00 00 00 00 00 00 00 00 00 ... -- CPU_WriteMem(1024 bytes @ 0x20000400)  returns 0x400 (0012ms, 4336ms total)
T4598 149:711 JLINK_WriteMem(0x20000800, 0x0400 Bytes, ...) - Data: 00 28 F6 D1 BA F1 FF 3F 0C D0 24 F4 C0 64 00 2E ... -- CPU_WriteMem(1024 bytes @ 0x20000800)  returns 0x400 (0011ms, 4347ms total)
T4598 149:722 JLINK_WriteMem(0x20000C00, 0x0400 Bytes, ...) - Data: 23 46 4F F0 00 02 36 D4 3E E0 E8 07 7F F4 47 AF ... -- CPU_WriteMem(1024 bytes @ 0x20000C00)  returns 0x400 (0012ms, 4359ms total)
T4598 149:734 JLINK_WriteMem(0x20001000, 0x0234 Bytes, ...) - Data: 41 54 2B 46 49 4C 54 45 52 3A 4F 4B 0D 0A 00 00 ... -- CPU_WriteMem(564 bytes @ 0x20001000)  returns 0x234 (0050ms, 4409ms total)
T4598 149:784 JLINK_WriteReg(R0, 0x00023000)  returns 0x00 (0000ms, 4409ms total)
T4598 149:784 JLINK_WriteReg(R1, 0x00001000)  returns 0x00 (0000ms, 4409ms total)
T4598 149:784 JLINK_WriteReg(R2, 0x20000234)  returns 0x00 (0001ms, 4410ms total)
T4598 149:785 JLINK_WriteReg(R3, 0x00000000)  returns 0x00 (0000ms, 4410ms total)
T4598 149:785 JLINK_WriteReg(R4, 0x00000000)  returns 0x00 (0000ms, 4410ms total)
T4598 149:785 JLINK_WriteReg(R5, 0x00000000)  returns 0x00 (0000ms, 4410ms total)
T4598 149:785 JLINK_WriteReg(R6, 0x00000000)  returns 0x00 (0000ms, 4410ms total)
T4598 149:785 JLINK_WriteReg(R7, 0x00000000)  returns 0x00 (0000ms, 4410ms total)
T4598 149:785 JLINK_WriteReg(R8, 0x00000000)  returns 0x00 (0000ms, 4410ms total)
